step,reward,duty,vC,iL
0,-0.06608003267634066,0.1,-0.3817509009150455,0.8421404746295251
1,0.02085787347710692,0.1,-1.076689001596878,1.5736386733716756
2,0.028112692361123213,0.1,-2.022350609326409,2.141339889318827
3,0.03598256901713359,0.1,-3.138755070804071,2.5062210245139642
4,0.04481171211773407,0.1,-4.335063741452608,2.6459908243963652
5,0.05466870292184595,0.1,-5.516884452931664,2.556327509445998
6,0.06497316721309455,0.1,-6.593640626854794,2.2506974938604203
7,0.07431291001909773,0.1,-7.485435820972385,1.7588097371496552
8,0.08069175964744342,0.1,-8.128899624474359,1.1238637598905128
9,0.08220627889848438,0.1,-8.48159395285112,0.39883771281570746
10,0.07822344535828113,0.1,-8.535156819859628,0.0
11,0.07513964390134832,0.1,-8.47255326783411,0.0
12,0.07408164926785964,0.1,-8.412139678007238,0.0
13,0.07307343165309003,0.1,-8.353859824562917,0.0
14,0.07211262554399697,0.1,-8.297657690162264,0.0
15,0.07119697846777855,0.1,-8.243477537653328,0.0
16,0.07032434567643589,0.1,-8.191263979726347,0.0
17,0.06949268505980204,0.1,-8.14096204620807,0.0
18,0.06870005228063558,0.1,-8.092517248718032,0.0
19,0.06794459612501745,0.1,-8.045875642440084,0.0
20,0.06722455406105501,0.1,-8.000983884794053,0.0
21,0.06653824799873384,0.1,-7.957789290824576,0.0
22,0.06588251186302259,0.1,-7.916192362534445,0.0
23,0.06525473122704153,0.1,-7.876083963962053,0.0
24,0.06465472183865355,0.1,-7.837421620064786,0.0
25,0.06408125302437767,0.1,-7.800163362068386,0.0
26,0.06353314851063369,0.1,-7.764267767235847,0.0
27,0.0630092840590884,0.1,-7.729693995831412,0.0
28,0.06250858519897141,0.1,-7.696401825243636,0.0
29,0.062030025053103996,0.1,-7.664351681251353,0.0
30,0.06157262225440186,0.1,-7.633504666434947,0.0
31,0.061135438949645265,0.1,-7.603822585752739,0.0
32,0.060717578887356585,0.1,-7.575267969318276,0.0
33,0.0603181855866819,0.1,-7.54780409242901,0.0
34,0.059936440584227695,0.1,-7.52139499290996,0.0
35,0.059571561755880666,0.1,-7.49600548584769,0.0
36,0.05922280171070452,0.1,-7.471601175800148,0.0
37,0.05888944625408761,0.1,-7.4481484665766935,0.0
38,0.05857081291739316,0.1,-7.425614568690027,0.0
39,0.058266249551445375,0.1,-7.4039675045877065,0.0
40,0.05797513298126416,0.1,-7.383176111775687,0.0
41,0.05769686771954885,0.1,-7.363210043949769,0.0
42,0.05743088473648601,0.1,-7.3440397702531826,0.0
43,0.05717664028355115,0.1,-7.325636572779883,0.0
44,0.05693361476903575,0.1,-7.307972542443302,0.0
45,0.056701311683136996,0.1,-7.29102057332991,0.0
46,0.05647925657050138,0.1,-7.274754355655429,0.0
47,0.056266996048209644,0.1,-7.259148367439612,0.0
48,0.056064096867258176,0.1,-7.244177865012783,0.0
49,0.05587014501566522,0.1,-7.229818872464166,0.0
50,0.05568387777502563,0.1,-7.216020037712108,0.0
51,0.05550509648118146,0.1,-7.2027493739576975,0.0
52,0.055333696016618195,0.1,-7.189988179206014,0.0
53,0.05516937216645354,0.1,-7.177718302063797,0.0
54,0.05501183320329334,0.1,-7.165922133727646,0.0
55,0.0548607993798604,0.1,-7.154582599440214,0.0
56,0.05471600244172284,0.1,-7.143683149474575,0.0
57,0.054577185159372106,0.1,-7.133207749704224,0.0
58,0.054444100878928696,0.1,-7.123140871813187,0.0
59,0.05431651309077513,0.1,-7.11346748319791,0.0
60,0.05419419501543822,0.1,-7.104173036609522,0.0
61,0.0540769292060607,0.1,-7.095243459582283,0.0
62,0.05396450716683736,0.1,-7.086665143691115,0.0
63,0.05385672898679224,0.1,-7.078424933678195,0.0
64,0.0537534029883114,0.1,-7.070510116485904,0.0
65,0.05365434538985861,0.1,-7.062908410230691,0.0
66,0.05355937998232239,0.1,-7.0556079531497655,0.0
67,0.053468337818458694,0.1,-7.048597292550029,0.0
68,0.053381056914924785,0.1,-7.0418653737862105,0.0
69,0.053297381966397266,0.1,-7.035401529292834,0.0
70,0.05321716407131004,0.1,-7.0291954676924195,0.0
71,0.05314026046874326,0.1,-7.023237263000203,0.0
72,0.053066534286025084,0.1,-7.017517343943638,0.0
73,0.05299585429662176,0.1,-7.012026483413043,0.0
74,0.05292809468790044,0.1,-7.0067557880579905,0.0
75,0.05286313483837636,0.1,-7.001696688042278,0.0
76,0.05280085910405925,0.1,-6.996840926968819,0.0
77,0.052741156613539265,0.1,-6.992180551984252,0.0
78,0.05268392107145393,0.1,-6.987707904071718,0.0
79,0.05262905057000638,0.1,-6.983415608538957,0.0
80,0.05257644740820413,0.1,-6.979296565707693,0.0
81,0.05252601791850801,0.1,-6.975343941809169,0.0
82,0.05247767230059361,0.1,-6.971551160089678,0.0
83,0.052431324461932695,0.1,-6.967911892129008,0.0
84,0.05238689186492247,0.1,-6.964420049373869,0.0
85,0.05234429538029244,0.1,-6.96106977488756,0.0
86,0.052303459146536224,0.1,-6.957855435316438,0.0
87,0.052264310435121177,0.1,-6.954771613073134,0.0
88,0.05222677952124363,0.1,-6.951813098735815,0.0
89,0.05219079955989727,0.1,-6.948974883662307,0.0
90,0.05215630646704501,0.1,-6.9462521528174,0.0
91,0.05212323880567909,0.1,-6.9436402778112605,0.0
92,0.05209153767657556,0.1,-6.941134810146468,0.0
93,0.052061146613545155,0.1,-6.938731474670855,0.0
94,0.052032011483001225,0.1,-6.936426163233129,0.0
95,0.05200408038766498,0.1,-6.934214928537841,0.0
96,0.051977303574239006,0.1,-6.932093978196214,0.0
97,0.05195163334488682,0.1,-6.930059668969043,0.0
98,0.0519270239723618,0.1,-6.9281085011977845,0.0
99,0.05190343161863597,0.1,-6.926237113419784,0.0
100,0.05188081425688274,0.1,-6.924442277163521,0.0
101,0.051859131596680534,0.1,-6.922720891919655,0.0
102,0.05183834501229935,0.1,-6.921069980283556,0.0
103,0.051818417473946776,0.1,-6.919486683265074,0.0
104,0.051799313481851454,0.1,-6.917968255761103,0.0
105,0.05178099900306512,0.1,-6.916512062186655,0.0
106,0.05176344141087518,0.1,-6.915115572260075,0.0
107,0.05174660942671526,0.1,-6.913776356938031,0.0
108,0.05173047306447549,0.1,-6.912492084496002,0.0
109,0.051715003577110674,0.1,-6.911260516749978,0.0
110,0.05170017340545348,0.1,-6.91007950541513,0.0
111,0.05168595612913967,0.1,-6.908946988597297,0.0
112,0.05167232641956119,0.1,-6.9078609874131685,0.0
113,0.05165925999476035,0.1,-6.9068196027351,0.0
114,0.051646733576188014,0.1,-6.905821012056592,0.0
115,0.05163472484724629,0.1,-6.904863466474547,0.0
116,0.051623212413544645,0.1,-6.903945287784436,0.0
117,0.05161217576479554,0.1,-6.903064865684671,0.0
118,0.05160159523828612,0.1,-6.9022206550864915,0.0
119,0.0515914519838566,0.1,-6.901411173525813,0.0
120,0.05158172793032733,0.1,-6.900634998673552,0.0
121,0.051572405753310166,0.1,-6.899890765940983,0.0
122,0.051563468844351645,0.1,-6.899177166176874,0.0
123,0.051554901281349944,0.1,-6.898492943453157,0.0
124,0.051546687800193336,0.1,-6.897836892935959,0.0
125,0.05153881376757143,0.1,-6.897207858839025,0.0
126,0.05153126515490975,0.1,-6.89660473245651,0.0
127,0.05152402851337879,0.1,-6.896026450272287,0.0
128,0.051517090949939275,0.1,-6.895471992143028,0.0
129,0.05151044010437369,0.1,-6.894940379552279,0.0
130,0.05150406412726963,0.1,-6.894430673933006,0.0
131,0.05149795165890998,0.1,-6.893941975056008,0.0
132,0.05149209180903748,0.1,-6.893473419481781,0.0
133,0.051486474137455204,0.1,-6.893024179073458,0.0
134,0.05148108863542678,0.1,-6.892593459568535,0.0
135,0.051475925707847495,0.1,-6.892180499207155,0.0
136,0.05147097615614983,0.1,-6.891784567414814,0.0
137,0.051466231161918494,0.1,-6.891404963537438,0.0
138,0.05146168227117783,0.1,-6.891041015626805,0.0
139,0.051457321379333475,0.1,-6.8906920792743955,0.0
140,0.05145314071673303,0.1,-6.890357536491832,0.0
141,0.05144913283482356,0.1,-6.890036794636073,0.0
142,0.051445290592883205,0.1,-6.88972928537766,0.0
143,0.051441607145299086,0.1,-6.8894344637103515,0.0
144,0.051438075929371246,0.1,-6.8891518070005,0.0
145,0.05143469065362147,0.1,-6.888880814074674,0.0
146,0.05143144528658409,0.1,-6.888621004343977,0.0
147,0.051428334046060994,0.1,-6.888371916963673,0.0
148,0.05142535138881985,0.1,-6.888133110026694,0.0
149,0.05142249200071896,0.1,-6.887904159789726,0.0
150,0.051419750787238705,0.1,-6.887684659930566,0.0
151,0.0514171228644061,0.1,-6.887474220835529,0.0
152,0.051414603550093294,0.1,-6.887272468915706,0.0
153,0.051412188355675514,0.1,-6.88707904595093,0.0
154,0.05140987297803442,0.1,-6.886893608460359,0.0
155,0.05140765329189152,0.1,-6.886715827098604,0.0
156,0.051405525342458874,0.1,-6.88654538607639,0.0
157,0.05140348533839226,0.1,-6.886381982604758,0.0
158,0.0514015296450376,0.1,-6.886225326361895,0.0
159,0.05139965477795425,0.1,-6.8860751389816555,0.0
160,0.051397857396707894,0.1,-6.885931153562922,0.0
161,0.05139613429891836,0.1,-6.885793114198951,0.0
162,0.05139448241455498,0.1,-6.885660775525942,0.0
163,0.05139289880046604,0.1,-6.885533902289988,0.0
164,0.05139138063513537,0.1,-6.8854122689317405,0.0
165,0.051389925213656026,0.1,-6.885295659188016,0.0
166,0.05138852994291024,0.1,-6.885183865709698,0.0
167,0.05138719233694964,0.1,-6.885076689695247,0.0
168,0.05138591001256678,0.1,-6.884973940539223,0.0
169,0.051384680685047986,0.1,-6.884875435495167,0.0
170,0.051383502164103464,0.1,-6.8847809993523,0.0
171,0.05138237234996484,0.1,-6.884690464125457,0.0
172,0.05138128922964432,0.1,-6.884603668757726,0.0
173,0.051380250873347535,0.1,-6.884520458835277,0.0
174,0.05137925543103576,0.1,-6.884440686313869,0.0
175,0.051378301129129965,0.1,-6.8843642092565975,0.0
176,0.051377386267350535,0.1,-6.8842908915823795,0.0
177,0.05137650921568752,0.1,-6.884220602824772,0.0
178,0.05137566841149761,0.1,-6.88415321790069,0.0
179,0.05137486235671908,0.1,-6.884088616888612,0.0
180,0.051374089615202984,0.1,-6.884026684815919,0.0
181,0.051373348810154346,0.1,-6.883967311454933,0.0
182,0.05137263862167976,0.1,-6.883910391127378,0.0
183,0.05137195778443427,0.1,-6.883855822516846,0.0
184,0.05137130508536892,0.1,-6.883803508488995,0.0
185,0.051370679361567674,0.1,-6.883753355919125,0.0
186,0.05137007949817669,0.1,-6.883705275526854,0.0
187,0.05136950442641735,0.1,-6.883659181717599,0.0
188,0.051368953121682506,0.1,-6.883614992430574,0.0
189,0.0513684246017102,0.1,-6.883572628993031,0.0
190,0.051367917924834604,0.1,-6.883532015980531,0.0
191,0.05136743218830724,0.1,-6.883493081082945,0.0
192,0.05136696652668935,0.1,-6.88345575497597,0.0
193,0.05136652011030965,0.1,-6.883419971197953,0.0
194,0.05136609214378598,0.1,-6.883385666031774,0.0
195,0.05136568186460823,0.1,-6.883352778391601,0.0
196,0.05136528854178012,0.1,-6.883321249714307,0.0
197,0.05136491147451605,0.1,-6.883291023855364,0.0
198,0.05136454999099391,0.1,-6.883262046989035,0.0
199,0.05136420344715593,0.1,-6.883234267512655,0.0
200,0.051363871225563296,0.1,-6.883207635954887,0.0
201,0.05136355273429512,0.1,-6.883182104887735,0.0
202,0.05136324740589336,0.1,-6.8831576288422065,0.0
203,0.05136295469635274,0.1,-6.883134164227439,0.0
204,0.0513626740841509,0.1,-6.883111669253157,0.0
205,0.05136240506931951,0.1,-6.883090103855345,0.0
206,0.051362147172553,0.1,-6.8830694296249675,0.0
207,0.051361899934355165,0.1,-6.8830496097396345,0.0
208,0.051361662914219945,0.1,-6.8830306088981,0.0
209,0.05136143568984731,0.1,-6.883012393257439,0.0
210,0.05136121785638993,0.1,-6.882994930372832,0.0
211,0.05136100902573259,0.1,-6.8829781891398305,0.0
212,0.05136080882580028,0.1,-6.882962139739007,0.0
213,0.05136061689989538,0.1,-6.882946753582884,0.0
214,0.05136043290606204,0.1,-6.882932003265048,0.0
215,0.05136025651647737,0.1,-6.882917862511385,0.0
216,0.05136008741686683,0.1,-6.882904306133309,0.0
217,0.051359925305944534,0.1,-6.882891309982922,0.0
218,0.05135976989487565,0.1,-6.882878850910034,0.0
219,0.05135962090676414,0.1,-6.882866906720955,0.0
220,0.05135947807615598,0.1,-6.882855456138985,0.0
221,0.0513593411485694,0.1,-6.8828444787665335,0.0
222,0.05135920988003914,0.1,-6.8828339550488025,0.0
223,0.05135908403668315,0.1,-6.88282386623898,0.0
224,0.05135896339428577,0.1,-6.882814194364864,0.0
225,0.05135884773789671,0.1,-6.882804922196849,0.0
226,0.05135873686145106,0.1,-6.882796033217265,0.0
227,0.051358630567398776,0.1,-6.882787511590957,0.0
228,0.05135852866635521,0.1,-6.8827793421370895,0.0
229,0.0513584309767623,0.1,-6.882771510302116,0.0
230,0.05135833732456604,0.1,-6.882764002133868,0.0
231,0.051358247542905175,0.1,-6.8827568042566964,0.0
232,0.05135816147181533,0.1,-6.882749903847671,0.0
233,0.05135807895794306,0.1,-6.882743288613728,0.0
234,0.05135799985427239,0.1,-6.882736946769786,0.0
235,0.05135792401986387,0.1,-6.882730867017758,0.0
236,0.05135785131960293,0.1,-6.882725038526425,0.0
237,0.051357781623958654,0.1,-6.882719450912157,0.0
238,0.051357714808753875,0.1,-6.882714094220407,0.0
239,0.051357650754943404,0.1,-6.882708958907986,0.0
240,0.05135758934840193,0.1,-6.882704035826071,0.0
241,0.05135753047972122,0.1,-6.882699316203911,0.0
242,0.05135747404401416,0.1,-6.882694791633191,0.0
243,0.05135741994072893,0.1,-6.88269045405307,0.0
244,0.05135736807346936,0.1,-6.882686295735821,0.0
245,0.051357318349822954,0.1,-6.882682309273065,0.0
246,0.0513572706811968,0.1,-6.882678487562572,0.0
247,0.051357224982659315,0.1,-6.882674823795613,0.0
248,0.051357181172789035,0.1,-6.8826713114448355,0.0
249,0.051357139173529645,0.1,-6.8826679442526295,0.0
250,0.05135709891005036,0.1,-6.882664716219988,0.0
251,0.05135706031061383,0.1,-6.8826616215958145,0.0
252,0.05135702330644695,0.1,-6.882658654866685,0.0
253,0.051356987831619114,0.1,-6.88265581074702,0.0
254,0.05135695382292445,0.1,-6.882653084169678,0.0
255,0.05135692121976935,0.1,-6.882650470276915,0.0
256,0.05135688996406489,0.1,-6.882647964411752,0.0
257,0.05135686000012202,0.1,-6.882645562109651,0.0
258,0.051356831274553996,0.1,-6.882643259090591,0.0
259,0.05135680373618023,0.1,-6.882641051251426,0.0
260,0.05135677733593529,0.1,-6.882638934658578,0.0
261,0.05135675202678173,0.1,-6.882636905541032,0.0
262,0.051356727763625744,0.1,-6.882634960283618,0.0
263,0.05135670450323803,0.1,-6.882633095420571,0.0
264,0.05135668220417479,0.1,-6.882631307629353,0.0
265,0.051356660826705945,0.1,-6.882629593724742,0.0
266,0.05135664033274283,0.1,-6.882627950653145,0.0
267,0.05135662068577138,0.1,-6.8826263754871695,0.0
268,0.051356601850786415,0.1,-6.882624865420409,0.0
269,0.05135658379422933,0.1,-6.882623417762434,0.0
270,0.051356566483928744,0.1,-6.882622029934001,0.0
271,0.05135654988904259,0.1,-6.882620699462462,0.0
272,0.051356533980003796,0.1,-6.8826194239773635,0.0
273,0.05135651872846719,0.1,-6.88261820120621,0.0
274,0.051356504107258644,0.1,-6.882617028970426,0.0
275,0.05135649009032755,0.1,-6.882615905181466,0.0
276,0.051356476652699934,0.1,-6.882614827837111,0.0
277,0.05135646377043396,0.1,-6.882613795017883,0.0
278,0.05135645142057688,0.1,-6.882612804883626,0.0
279,0.05135643958112483,0.1,-6.882611855670243,0.0
280,0.05135642823098383,0.1,-6.882610945686541,0.0
281,0.05135641734993087,0.1,-6.882610073311217,0.0
282,0.051356406918579095,0.1,-6.882609236989977,0.0
283,0.05135639691834286,0.1,-6.882608435232762,0.0
284,0.051356387331404844,0.1,-6.88260766661109,0.0
285,0.051356378140683695,0.1,-6.882606929755525,0.0
286,0.051356369329804426,0.1,-6.882606223353219,0.0
287,0.05135636088306856,0.1,-6.882605546145582,0.0
288,0.051356352785426204,0.1,-6.882604896926044,0.0
289,0.05135634502245024,0.1,-6.8826042745379,0.0
290,0.05135633758030898,0.1,-6.882603677872247,0.0
291,0.051356330445742705,0.1,-6.882603105866007,0.0
292,0.0513563236060398,0.1,-6.8826025575000465,0.0
293,0.05135631704901369,0.1,-6.882602031797343,0.0
294,0.051356310762982006,0.1,-6.882601527821256,0.0
295,0.051356304736744594,0.1,-6.882601044673859,0.0
296,0.051356298959564575,0.1,-6.8826005814943265,0.0
297,0.05135629342114865,0.1,-6.882600137457417,0.0
298,0.05135628811162892,0.1,-6.88259971177199,0.0
299,0.05135628302154565,0.1,-6.882599303679603,0.0
300,0.051356278141829526,0.1,-6.882598912453165,0.0
301,0.0513562734637864,0.1,-6.8825985373956255,0.0
302,0.0513562689790812,0.1,-6.882598177838743,0.0
303,0.05135626467972365,0.1,-6.882597833141898,0.0
304,0.05135626055805376,0.1,-6.882597502690946,0.0
305,0.05135625660672757,0.1,-6.882597185897124,0.0
306,0.05135625281870502,0.1,-6.8825968821959975,0.0
307,0.051356249187237156,0.1,-6.882596591046464,0.0
308,0.051356245705853384,0.1,-6.882596311929781,0.0
309,0.051356242368351436,0.1,-6.882596044348649,0.0
310,0.051356239168784366,0.1,-6.8825957878263155,0.0
311,0.05135623610145167,0.1,-6.8825955419057365,0.0
312,0.051356233160888366,0.1,-6.882595306148755,0.0
313,0.05135623034185511,0.1,-6.8825950801353235,0.0
314,0.051356227639329115,0.1,-6.882594863462751,0.0
315,0.05135622504849558,0.1,-6.882594655744994,0.0
316,0.05135622256473791,0.1,-6.882594456611962,0.0
317,0.051356220183631285,0.1,-6.882594265708856,0.0
318,0.051356217900932775,0.1,-6.882594082695544,0.0
319,0.05135621571257575,0.1,-6.88259390724595,0.0
320,0.051356213614660896,0.1,-6.882593739047479,0.0
321,0.051356211603450504,0.1,-6.88259357780045,0.0
322,0.05135620967536105,0.1,-6.882593423217568,0.0
323,0.05135620782695719,0.1,-6.882593275023407,0.0
324,0.051356206054945897,0.1,-6.882593132953934,0.0
325,0.05135620435616954,0.1,-6.882592996756023,0.0
326,0.05135620272760172,0.1,-6.882592866187007,0.0
327,0.051356201166340675,0.1,-6.882592741014254,0.0
328,0.05135619966960501,0.1,-6.882592621014743,0.0
329,0.05135619823472721,0.1,-6.8825925059746655,0.0
330,0.05135619685915153,0.1,-6.882592395689058,0.0
331,0.051356195540426884,0.1,-6.882592289961426,0.0
332,0.05135619427620331,0.1,-6.8825921886033905,0.0
333,0.051356193064228776,0.1,-6.8825920914343595,0.0
334,0.05135619190234374,0.1,-6.88259199828121,0.0
335,0.051356190788477994,0.1,-6.882591908977968,0.0
336,0.051356189720646955,0.1,-6.882591823365525,0.0
337,0.05135618869694835,0.1,-6.882591741291341,0.0
338,0.051356187715557826,0.1,-6.8825916626091885,0.0
339,0.05135618677472718,0.1,-6.882591587178875,0.0
340,0.05135618587277982,0.1,-6.882591514866008,0.0
341,0.05135618500810904,0.1,-6.882591445541746,0.0
342,0.0513561841791739,0.1,-6.882591379082573,0.0
343,0.05135618338449787,0.1,-6.882591315370082,0.0
344,0.051356182622664885,0.1,-6.882591254290753,0.0
345,0.05135618189231754,0.1,-6.88259119573576,0.0
346,0.051356181192154585,0.1,-6.882591139600777,0.0
347,0.05135618052092855,0.1,-6.882591085785786,0.0
348,0.05135617987744344,0.1,-6.882591034194906,0.0
349,0.05135617926055279,0.1,-6.882590984736215,0.0
350,0.05135617866915761,0.1,-6.882590937321592,0.0
351,0.05135617810220412,0.1,-6.882590891866561,0.0
352,0.05135617755868216,0.1,-6.882590848290135,0.0
353,0.051356177037623234,0.1,-6.882590806514671,0.0
354,0.05135617653809913,0.1,-6.882590766465736,0.0
355,0.05135617605921969,0.1,-6.8825907280719765,0.0
356,0.05135617560013198,0.1,-6.882590691264987,0.0
357,0.051356175160017725,0.1,-6.882590655979189,0.0
358,0.05135617473809287,0.1,-6.88259062215171,0.0
359,0.05135617433360567,0.1,-6.88259058972228,0.0
360,0.051356173945835464,0.1,-6.882590558633123,0.0
361,0.05135617357409128,0.1,-6.882590528828843,0.0
362,0.051356173217710924,0.1,-6.882590500256337,0.0
363,0.05135617287605927,0.1,-6.882590472864701,0.0
364,0.051356172548527826,0.1,-6.882590446605129,0.0
365,0.051356172234532926,0.1,-6.882590421430836,0.0
366,0.05135617193351485,0.1,-6.8825903972969655,0.0
367,0.05135617164493772,0.1,-6.882590374160521,0.0
368,0.051356171368286824,0.1,-6.882590351980278,0.0
369,0.05135617110306991,0.1,-6.882590330716718,0.0
370,0.05135617084881401,0.1,-6.882590310331957,0.0
371,0.05135617060506614,0.1,-6.882590290789673,0.0
372,0.05135617037139203,0.1,-6.882590272055047,0.0
373,0.051356170147375674,0.1,-6.882590254094704,0.0
374,0.05135616993261741,0.1,-6.882590236876641,0.0
375,0.05135616972673486,0.1,-6.882590220370179,0.0
376,0.0513561695293613,0.1,-6.88259020454591,0.0
377,0.05135616934014494,0.1,-6.882590189375641,0.0
378,0.05135616915874866,0.1,-6.88259017483234,0.0
379,0.05135616898484921,0.1,-6.882590160890099,0.0
380,0.051356168818136934,0.1,-6.8825901475240725,0.0
381,0.05135616865831453,0.1,-6.882590134710447,0.0
382,0.051356168505097444,0.1,-6.882590122426394,0.0
383,0.05135616835821283,0.1,-6.8825901106500265,0.0
384,0.0513561682173985,0.1,-6.882590099360365,0.0
385,0.051356168082404126,0.1,-6.882590088537291,0.0
386,0.051356167952988814,0.1,-6.882590078161524,0.0
387,0.05135616782892197,0.1,-6.882590068214573,0.0
