step,reward,duty_cmd,eff_duty,on_steps,on_frac,vC,iL
0,0.018986138573922562,0.38461538461538464,0.38461538461538464,7,0.6923076923076916,-1.069624591090716,3.738992786683239
1,0.04578005256825672,0.38461538461538464,0.38461538461538464,7,0.6923076923076916,-3.1244714378970873,7.239385985824582
2,0.0768884519610141,0.38461538461538464,0.38461538461538464,7,0.6923076923076916,-6.060590757075372,10.381597343227071
3,0.14244843779303262,0.38461538461538464,0.38461538461538464,7,0.6923076923076916,-9.745242350750946,13.062599942767358
4,0.28455815875625956,0.38461538461538464,0.38461538461538464,7,0.6923076923076916,-14.022565244565477,15.199155950557392
5,0.5364767817146319,0.38461538461538464,0.38461538461538464,7,0.6923076923076916,-18.719914408155322,16.730236865952754
6,0.8430075253902296,0.38461538461538464,0.38461538461538464,7,0.6923076923076916,-23.654615116654977,17.61856704874897
7,1.0330611231023465,0.38461538461538464,0.38461538461538464,7,0.6923076923076916,-28.640877871859598,17.851260931910982
8,0.8606891482920501,0.38461538461538464,0.38461538461538464,7,0.6923076923076916,-33.49661869900472,17.439558031601003
9,0.5880890574426763,0.38461538461538464,0.38461538461538464,7,0.6923076923076916,-38.04994071497962,16.41769240896992
10,0.34488714148731947,0.38461538461538464,0.38461538461538464,7,0.6923076923076916,-42.145052449600655,14.840963477669739
11,0.17780215573423697,0.38461538461538464,0.38461538461538464,7,0.6923076923076916,-45.647425529068784,12.783101961528864
12,0.09093977952017514,0.38461538461538464,0.38461538461538464,7,0.6923076923076916,-48.448027791517184,10.3330475138095
13,0.05673364397573493,0.38461538461538464,0.38461538461538464,7,0.6923076923076916,-50.46650629715153,7.591272316862188
14,0.05141842905763464,0.38461538461538464,0.38461538461538464,7,0.6923076923076916,-51.65323648189532,4.665797391010329
15,0.0621555880736748,0.38461538461538464,0.38461538461538464,7,0.6923076923076916,-51.99019726892668,1.6680550666915628
16,0.08454969558331671,0.38461538461538464,0.38461538461538464,7,0.6923076923076916,-51.50871503560428,0.0
17,0.10578274277920519,0.38461538461538464,0.38461538461538464,7,0.6923076923076916,-50.70527661336749,0.0
18,0.12317893001935919,0.38461538461538464,0.38461538461538464,7,0.6923076923076916,-49.92528078091802,0.0
19,0.14248961026484314,0.38461538461538464,0.38461538461538464,7,0.6923076923076916,-49.16816311908556,0.0
20,0.1637092848916874,0.38461538461538464,0.38461538461538464,7,0.6923076923076916,-48.43241173063555,0.0
21,0.18673417344567475,0.38461538461538464,0.38461538461538464,7,0.6923076923076916,-47.717708366137124,0.0
22,0.21144562610072726,0.38461538461538464,0.38461538461538464,7,0.6923076923076916,-47.02373175120604,0.0
23,0.23769379010318603,0.38461538461538464,0.38461538461538464,7,0.6923076923076916,-46.35015745058863,0.0
24,0.2653022273378302,0.38461538461538464,0.38461538461538464,7,0.6923076923076916,-45.69665776120111,0.0
25,0.2940732530060391,0.38461538461538464,0.38461538461538464,7,0.6923076923076916,-45.062901635737575,0.0
26,0.32379369522672197,0.38461538461538464,0.38461538461538464,7,0.6923076923076916,-44.448554638258116,0.0
27,0.35424078480939175,0.38461538461538464,0.38461538461538464,7,0.6923076923076916,-43.85327893293713,0.0
28,0.38519108511745614,0.38461538461538464,0.38461538461538464,7,0.6923076923076916,-43.27668927070702,0.0
29,0.4164990620862523,0.38461538461538464,0.38461538461538464,7,0.6923076923076916,-42.71736333036195,0.0
30,0.4479289328689464,0.38461538461538464,0.38461538461538464,7,0.6923076923076916,-42.17502328091112,0.0
31,0.47927227912945747,0.38461538461538464,0.38461538461538464,7,0.6923076923076916,-41.64938679303001,0.0
32,0.5103325273880318,0.38461538461538464,0.38461538461538464,7,0.6923076923076916,-41.14016713294432,0.0
33,0.5409278966200679,0.38461538461538464,0.38461538461538464,7,0.6923076923076916,-40.64707328912438,0.0
34,0.5708936447849796,0.38461538461538464,0.38461538461538464,7,0.6923076923076916,-40.16981013159889,0.0
35,0.6000836289356588,0.38461538461538464,0.38461538461538464,7,0.6923076923076916,-39.708078603380606,0.0
36,0.6283712194900819,0.38461538461538464,0.38461538461538464,7,0.6923076923076916,-39.26157594317599,0.0
37,0.6556496286688449,0.38461538461538464,0.38461538461538464,7,0.6923076923076916,-38.82999593823393,0.0
38,0.6818683518469215,0.38461538461538464,0.38461538461538464,7,0.6923076923076916,-38.412569967577475,0.0
39,0.7069849997102919,0.38461538461538464,0.38461538461538464,7,0.6923076923076916,-38.008549988680514,0.0
40,0.7309345917205357,0.38461538461538464,0.38461538461538464,7,0.6923076923076916,-37.61768198972825,0.0
41,0.7536766493047781,0.38461538461538464,0.38461538461538464,7,0.6923076923076916,-37.23970824690297,0.0
42,0.7751857624537776,0.38461538461538464,0.38461538461538464,7,0.6923076923076916,-36.874367630884706,0.0
43,0.7954503019046676,0.38461538461538464,0.38461538461538464,7,0.6923076923076916,-36.52139593439615,0.0
44,0.8144710326259852,0.38461538461538464,0.38461538461538464,7,0.6923076923076916,-36.18052621866866,0.0
45,0.8322596781783038,0.38461538461538464,0.38461538461538464,7,0.6923076923076916,-35.85148917652902,0.0
46,0.8488374783744834,0.38461538461538464,0.38461538461538464,7,0.6923076923076916,-35.534013509660134,0.0
47,0.8642337753728468,0.38461538461538464,0.38461538461538464,7,0.6923076923076916,-35.22782631747137,0.0
48,0.8784846562396232,0.38461538461538464,0.38461538461538464,7,0.6923076923076916,-34.932653494931095,0.0
49,0.8916625608376764,0.38461538461538464,0.38461538461538464,7,0.6923076923076916,-34.64772569960302,0.0
50,0.9038125514668734,0.38461538461538464,0.38461538461538464,7,0.6923076923076916,-34.37259204059832,0.0
51,0.9149735649817697,0.38461538461538464,0.38461538461538464,7,0.6923076923076916,-34.10702623098329,0.0
52,0.9251910010921004,0.38461538461538464,0.38461538461538464,7,0.6923076923076916,-33.85080079287617,0.0
53,0.9345121415893111,0.38461538461538464,0.38461538461538464,7,0.6923076923076916,-33.60368741902293,0.0
54,0.9429854258573743,0.38461538461538464,0.38461538461538464,7,0.6923076923076916,-33.36545733399799,0.0
55,0.9506598128588128,0.38461538461538464,0.38461538461538464,7,0.6923076923076916,-33.13588165291105,0.0
56,0.9575842271747746,0.38461538461538464,0.38461538461538464,7,0.6923076923076916,-32.914731735579394,0.0
57,0.963807085251333,0.38461538461538464,0.38461538461538464,7,0.6923076923076916,-32.70177953422198,0.0
58,0.9693758969606991,0.38461538461538464,0.38461538461538464,7,0.6923076923076916,-32.49679793284819,0.0
59,0.9743369368759205,0.38461538461538464,0.38461538461538464,7,0.6923076923076916,-32.29956107664617,0.0
60,0.9787349792307349,0.38461538461538464,0.38461538461538464,7,0.6923076923076916,-32.1098446898201,0.0
61,0.9826130903439619,0.38461538461538464,0.38461538461538464,7,0.6923076923076916,-31.92742638048224,0.0
62,0.9860124722851168,0.38461538461538464,0.38461538461538464,7,0.6923076923076916,-31.752085931367844,0.0
63,0.988987404189,0.38461538461538464,0.38461538461538464,7,0.6923076923076916,-31.583163069642417,0.0
64,0.9915649804693156,0.38461538461538464,0.38461538461538464,7,0.6923076923076916,-31.420455300281663,0.0
65,0.9937773712370794,0.38461538461538464,0.38461538461538464,7,0.6923076923076916,-31.26378435760173,0.0
66,0.9956554110999158,0.38461538461538464,0.38461538461538464,7,0.6923076923076916,-31.112973698036335,0.0
67,0.9972282056037688,0.38461538461538464,0.38461538461538464,7,0.6923076923076916,-30.967848712168596,0.0
68,0.9985231357030977,0.38461538461538464,0.38461538461538464,7,0.6923076923076916,-30.828236923561356,0.0
69,0.999565878332205,0.38461538461538464,0.38461538461538464,7,0.6923076923076916,-30.69396817402013,0.0
70,1.1003804402963673,0.38461538461538464,0.38461538461538464,7,0.6923076923076916,-30.56487479503662,0.0
71,1.1009892029802695,0.38461538461538464,0.38461538461538464,7,0.6923076923076916,-30.440791765270042,0.0
72,1.101412975643143,0.38461538461538464,0.38461538461538464,7,0.6923076923076916,-30.32155685402709,0.0
73,1.1016710553305575,0.38461538461538464,0.38461538461538464,7,0.6923076923076916,-30.207010750797423,0.0
74,1.1017812916787784,0.38461538461538464,0.38461538461538464,7,0.6923076923076916,-30.09699718099124,0.0
75,1.1014722553871144,0.38461538461538464,0.38461538461538464,7,0.6923076923076916,-29.991363008106784,0.0
76,1.0982426510006131,0.38461538461538464,0.38461538461538464,7,0.6923076923076916,-29.889958322629102,0.0
77,1.0981391117119201,0.38461538461538464,0.38461538461538464,7,0.6923076923076916,-29.792636518026423,0.0
78,1.0979412682556622,0.38461538461538464,0.38461538461538464,7,0.6923076923076916,-29.699254354267428,0.0
79,1.0976608971411472,0.38461538461538464,0.38461538461538464,7,0.6923076923076916,-29.609672009331575,0.0
80,1.0973087504233705,0.38461538461538464,0.38461538461538464,7,0.6923076923076916,-29.523753119224985,0.0
81,1.0968946230856815,0.38461538461538464,0.38461538461538464,7,0.6923076923076916,-29.44136480704803,0.0
82,0.9964274182768431,0.38461538461538464,0.38461538461538464,7,0.6923076923076916,-29.362377701685958,0.0
83,0.9959152101043555,0.38461538461538464,0.38461538461538464,7,0.6923076923076916,-29.286665946713388,0.0
84,0.9953653037657343,0.38461538461538464,0.38461538461538464,7,0.6923076923076916,-29.214107200115432,0.0
85,0.9947839275973382,0.38461538461538464,0.38461538461538464,7,0.6923076923076916,-29.1445686497991,0.0006162492549557919
86,0.9941765620217892,0.38461538461538464,0.38461538461538464,7,0.6923076923076916,-29.077910913294378,0.010114217122188407
87,0.9936159933055686,0.38461538461538464,0.38461538461538464,7,0.6923076923076916,-29.016461060275287,0.027883619460116083
88,0.9931321390747917,0.38461538461538464,0.38461538461538464,7,0.6923076923076916,-28.962287802381358,0.05303299295239916
89,0.9927532906228195,0.38461538461538464,0.38461538461538464,7,0.6923076923076916,-28.917134340433382,0.0844304057670377
90,0.9925032225082341,0.38461538461538464,0.38461538461538464,7,0.6923076923076916,-28.882365011538866,0.12075165380707509
91,0.9923986542776826,0.38461538461538464,0.38461538461538464,7,0.6923076923076916,-28.858927253930435,0.16053397299559147
92,0.9924473914652668,0.38461538461538464,0.38461538461538464,7,0.6923076923076916,-28.847329807246645,0.20223315739220304
93,0.9926473733423643,0.38461538461538464,0.38461538461538464,7,0.6923076923076916,-28.847637450603468,0.2442819129152713
94,0.9929867307384573,0.38461538461538464,0.38461538461538464,7,0.6923076923076916,-28.85948197295303,0.28514729679858164
95,0.9934448264685963,0.38461538461538464,0.38461538461538464,7,0.6923076923076916,-28.88208849166726,0.3233851904956189
96,0.993994130434989,0.38461538461538464,0.38461538461538464,7,0.6923076923076916,-28.914315706087358,0.35768992270922567
97,0.9946026857193895,0.38461538461538464,0.38461538461538464,7,0.6923076923076916,-28.954708210625245,0.38693739131054544
98,0.9952368616234124,0.38461538461538464,0.38461538461538464,7,0.6923076923076916,-29.00155861161319,0.4102203178226602
99,0.9958640707141893,0.38461538461538464,0.38461538461538464,7,0.6923076923076916,-29.052976904792487,0.4268745939807805
100,0.9964551503370768,0.38461538461538464,0.38461538461538464,7,0.6923076923076916,-29.106964383722552,0.4364960336173633
101,0.9969861701660377,0.38461538461538464,0.38461538461538464,7,0.6923076923076916,-29.161489267214034,0.4389472111125719
102,0.9974395165488043,0.38461538461538464,0.38461538461538464,7,0.6923076923076916,-29.21456125598656,0.43435443614652075
103,0.9978042082300739,0.38461538461538464,0.38461538461538464,7,0.6923076923076916,-29.264302351196672,0.42309527013261555
104,0.9980755012218507,0.38461538461538464,0.38461538461538464,7,0.6923076923076916,-29.309011482830204,0.40577732000973377
105,0.9982539284253192,0.38461538461538464,0.38461538461538464,7,0.6923076923076916,-29.347220793623144,0.3832093388260122
106,0.9983439803123548,0.38461538461538464,0.38461538461538464,7,0.6923076923076916,-29.377741790918584,0.3563659102187699
107,0.998352659491279,0.38461538461538464,0.38461538461538464,7,0.6923076923076916,-29.399699999334207,0.3263471878982246
108,1.0982881328515213,0.38461538461538464,0.38461538461538464,7,0.6923076923076916,-29.412557204470243,0.29433529616276394
109,1.0981586641836703,0.38461538461538464,0.38461538461538464,7,0.6923076923076916,-29.416120854465575,0.2615490701974254
110,1.0979719460769648,0.38461538461538464,0.38461538461538464,7,0.6923076923076916,-29.410540664177773,0.22919882466749497
111,0.9977348736508329,0.38461538461538464,0.38461538461538464,7,0.6923076923076916,-29.396292928774294,0.1984427874506957
112,0.9974537263520599,0.38461538461538464,0.38461538461538464,7,0.6923076923076916,-29.374153483326662,0.17034672596758355
113,0.9971346588667791,0.38461538461538464,0.38461538461538464,7,0.6923076923076916,-29.34516062800185,0.1458481321620037
114,0.9967843570360361,0.38461538461538464,0.38461538461538464,7,0.6923076923076916,-29.310569662181777,0.12572612615623163
115,0.9964106949814311,0.38461538461538464,0.38461538461538464,7,0.6923076923076916,-29.271800925367845,0.11057799675664798
116,0.9960232368970798,0.38461538461538464,0.38461538461538464,7,0.6923076923076916,-29.230383420904577,0.10080302914649558
117,0.9956334585727736,0.38461538461538464,0.38461538461538464,7,0.6923076923076916,-29.187896196222017,0.09659398674960112
118,0.9952546136258252,0.38461538461538464,0.38461538461538464,7,0.6923076923076916,-29.145909669329782,0.09793632610757302
119,0.9949012291519113,0.38461538461538464,0.38461538461538464,7,0.6923076923076916,-29.10592902756489,0.10461494125928128
120,0.9945882755528993,0.38461538461538464,0.38461538461538464,7,0.6923076923076916,-29.069341685799387,0.1162279675948934
121,0.9943301066566711,0.38461538461538464,0.38461538461538464,7,0.6923076923076916,-29.037370584730528,0.13220693365226815
122,0.9941393017650383,0.38461538461538464,0.38461538461538464,7,0.6923076923076916,-29.0110348450179,0.1518423408248572
123,0.9940255566252347,0.38461538461538464,0.38461538461538464,7,0.6923076923076916,-28.99111898123628,0.17431358201678454
124,0.9939947644289834,0.38461538461538464,0.38461538461538464,7,0.6923076923076916,-28.97815153357706,0.19872198584219186
125,0.9940484028116566,0.38461538461538464,0.38461538461538464,7,0.6923076923076916,-28.97239360851067,0.22412569619334777
126,0.9941833029770971,0.38461538461538464,0.38461538461538464,7,0.6923076923076916,-28.973837446116338,0.24957506924542144
127,0.9943918286835812,0.38461538461538464,0.38461538461538464,7,0.6923076923076916,-28.982214765219233,0.2741472907600508
128,0.9946624427469947,0.38461538461538464,0.38461538461538464,7,0.6923076923076916,-28.997014290915043,0.29697898368583997
129,0.9949805935591973,0.38461538461538464,0.38461538461538464,7,0.6923076923076916,-29.01750755445374,0.3172956857108847
130,0.9953298194591309,0.38461538461538464,0.38461538461538464,7,0.6923076923076916,-29.042781783232176,0.3344372233547785
131,0.9956929485639489,0.38461538461538464,0.38461538461538464,7,0.6923076923076916,-29.071778477393163,0.34787818695721495
132,0.9960532677578026,0.38461538461538464,0.38461538461538464,7,0.6923076923076916,-29.103336105729596,0.3572429121658621
133,0.996395546634301,0.38461538461538464,0.38461538461538464,7,0.6923076923076916,-29.136235251453016,0.36231459025714297
134,0.9967068278799645,0.38461538461538464,0.38461538461538464,7,0.6923076923076916,-29.16924449975577,0.36303835352812236
135,0.9969769307230937,0.38461538461538464,0.38461538461538464,7,0.6923076923076916,-29.20116538346852,0.3595184047539576
136,0.9971986533890524,0.38461538461538464,0.38461538461538464,7,0.6923076923076916,-29.230874787717678,0.3520094732823089
137,0.997367698392923,0.38461538461538464,0.38461538461538464,7,0.6923076923076916,-29.25736335445163,0.340903077276196
138,0.9974823758449539,0.38461538461538464,0.38461538461538464,7,0.6923076923076916,-29.279768616301006,0.3267092452882563
139,0.9975431608478321,0.38461538461538464,0.38461538461538464,7,0.6923076923076916,-29.297401818180777,0.31003449516218096
140,0.997552189375574,0.38461538461538464,0.38461538461538464,7,0.6923076923076916,-29.309767644830313,0.2915569798334346
141,0.9975127725558839,0.38461538461538464,0.38461538461538464,7,0.6923076923076916,-29.316576352790772,0.2719997848983692
142,0.997428993716019,0.38461538461538464,0.38461538461538464,7,0.6923076923076916,-29.317748095373403,0.2521034002002603
143,0.9973054290781591,0.38461538461538464,0.38461538461538464,7,0.6923076923076916,-29.313409518182038,0.23259838692662765
144,0.9971470057125152,0.38461538461538464,0.38461538461538464,7,0.6923076923076916,-29.303882980286925,0.21417922399536654
145,0.9969589836480512,0.38461538461538464,0.38461538461538464,7,0.6923076923076916,-29.289669012498933,0.19748024530211616
146,0.9967470268890055,0.38461538461538464,0.38461538461538464,7,0.6923076923076916,-29.27142285071828,0.1830544763564892
147,0.9965173135414437,0.38461538461538464,0.38461538461538464,7,0.6923076923076916,-29.24992607172171,0.17135604960635253
148,0.9962766300503563,0.38461538461538464,0.38461538461538464,7,0.6923076923076916,-29.22605450526405,0.16272672780155034
149,0.9960323989245773,0.38461538461538464,0.38461538461538464,7,0.6923076923076916,-29.200743695985196,0.15738690013178708
150,0.9957926020816217,0.38461538461538464,0.38461538461538464,7,0.6923076923076916,-29.174953239131245,0.15543124298825955
151,0.9955655806891657,0.38461538461538464,0.38461538461538464,7,0.6923076923076916,-29.149631315163425,0.15682906255252926
152,0.9953597139596673,0.38461538461538464,0.38461538461538464,7,0.6923076923076916,-29.12568070138376,0.1614291663853517
153,0.9951830003612454,0.38461538461538464,0.38461538461538464,7,0.6923076923076916,-29.103927446892875,0.16896895179063848
154,0.9950425820009983,0.38461538461538464,0.38461538461538464,7,0.6923076923076916,-29.085093265182994,0.17908725541767562
155,0.9949442640920745,0.38461538461538464,0.38461538461538464,7,0.6923076923076916,-29.069772532442617,0.19134038604473003
156,0.9948920850331014,0.38461538461538464,0.38461538461538464,7,0.6923076923076916,-29.0584145862544,0.20522066457163646
157,0.9948879884642923,0.38461538461538464,0.38461538461538464,7,0.6923076923076916,-29.05131180662075,0.22017672474508265
158,0.9949316375836156,0.38461538461538464,0.38461538461538464,7,0.6923076923076916,-29.04859373743635,0.2356347867787923
159,0.9950203957812507,0.38461538461538464,0.38461538461538464,7,0.6923076923076916,-29.05022728007872,0.25102010443502965
160,0.9951494786537541,0.38461538461538464,0.38461538461538464,7,0.6923076923076916,-29.056022769984924,0.26577780383093047
161,0.9953122633033238,0.38461538461538464,0.38461538461538464,7,0.6923076923076916,-29.06564553975029,0.2793923777037903
162,0.9955007240038048,0.38461538461538464,0.38461538461538464,7,0.6923076923076916,-29.07863238552573,0.29140516963418484
163,0.9957059508764577,0.38461538461538464,0.38461538461538464,7,0.6923076923076916,-29.094412193449614,0.30142927546387405
164,0.9959187015371243,0.38461538461538464,0.38461538461538464,7,0.6923076923076916,-29.112329854520546,0.3091613998399935
165,0.9961299353004762,0.38461538461538464,0.38461538461538464,7,0.6923076923076916,-29.131672503395144,0.31439032992165183
166,0.9963312851482907,0.38461538461538464,0.38461538461538464,7,0.6923076923076916,-29.15169706138134,0.31700182090393597
167,0.9965154332025171,0.38461538461538464,0.38461538461538464,7,0.6923076923076916,-29.171658047261896,0.3169798240905347
168,0.9966763692098523,0.38461538461538464,0.38461538461538464,7,0.6923076923076916,-29.19083464096937,0.3144041227490124
169,0.9968095265234527,0.38461538461538464,0.38461538461538464,7,0.6923076923076916,-29.208556042628338,0.3094445690894706
170,0.9969118041976857,0.38461538461538464,0.38461538461538464,7,0.6923076923076916,-29.224224259918216,0.302352232971469
