step,reward,duty_cmd,eff_duty,on_steps,on_frac,vC,iL
0,-0.0660800325739964,0.1,0.10000000149011612,2,2.9802322387695312e-08,-0.38175090641324894,0.842140489484021
1,0.020857873692263704,0.1,0.10000000149011612,2,2.9802322387695312e-08,-1.0766890176949517,1.5736387015758728
2,0.028112692713219152,0.1,0.10000000149011612,2,2.9802322387695312e-08,-2.0223506403355804,2.1413399285699417
3,0.035982569557234736,0.1,0.10000000149011612,2,2.9802322387695312e-08,-3.1387551200001695,2.506221071870609
4,0.04481171293067721,0.1,0.10000000149011612,2,2.9802322387695312e-08,-4.3350638108978305,2.6459908764724656
5,0.05466870411827992,0.1,0.10000000149011612,2,2.9802322387695312e-08,-5.516884543372023,2.5563275626275224
6,0.06497316889854009,0.1,0.10000000149011612,2,2.9802322387695312e-08,-6.593640737697974,2.2506975445321116
7,0.07431291224482645,0.1,0.10000000149011612,2,2.9802322387695312e-08,-7.485435950346305,1.758809781918534
8,0.08069176236499694,0.1,0.10000000149011612,2,2.9802322387695312e-08,-8.128899769362182,1.1238637957931705
9,0.08220628194437031,0.1,0.10000000149011612,2,2.9802322387695312e-08,-8.481594109294278,0.39883773749734464
10,0.07822344844540305,0.1,0.10000000149011612,2,2.9802322387695312e-08,-8.535156982050525,0.0
11,0.075139646784998,0.1,0.10000000149011612,2,2.9802322387695312e-08,-8.472553427964874,0.0
12,0.07408165208293946,0.1,0.10000000149011612,2,2.9802322387695312e-08,-8.412139836146672,0.0
13,0.07307343440301989,0.1,0.10000000149011612,2,2.9802322387695312e-08,-8.353859980778418,0.0
14,0.07211262823202436,0.1,0.10000000149011612,2,2.9802322387695312e-08,-8.297657844519799,0.0
15,0.07119698109698651,0.1,0.10000000149011612,2,2.9802322387695312e-08,-8.24347769021742,0.0
16,0.07032434824975194,0.1,0.10000000149011612,2,2.9802322387695312e-08,-8.191264130560057,0.0
17,0.06949268758000579,0.1,0.10000000149011612,2,2.9802322387695312e-08,-8.140962195372984,0.0
18,0.06870005475036667,0.1,0.10000000149011612,2,2.9802322387695312e-08,-8.09251739627426,0.0
19,0.06794459854678182,0.1,0.10000000149011612,2,2.9802322387695312e-08,-8.045875788446233,0.0
20,0.06722455643723231,0.1,0.10000000149011612,2,2.9802322387695312e-08,-8.000984029307226,0.0
21,0.06653825033158353,0.1,0.10000000149011612,2,2.9802322387695312e-08,-7.957789433900381,0.0
22,0.0658825141537886,0.1,0.10000000149011612,2,2.9802322387695312e-08,-7.916192504200321,0.0
23,0.06525473347808924,0.1,0.10000000149011612,2,2.9802322387695312e-08,-7.876084104268283,0.0
24,0.06465472405185349,0.1,0.10000000149011612,2,2.9802322387695312e-08,-7.837421759060395,0.0
25,0.06408125520151149,0.1,0.10000000149011612,2,2.9802322387695312e-08,-7.800163499801113,0.0
26,0.063533150653399,0.1,0.10000000149011612,2,2.9802322387695312e-08,-7.764267903752166,0.0
27,0.06300928616910176,0.1,0.10000000149011612,2,2.9802322387695312e-08,-7.729694131176529,0.0
28,0.06250858727777314,0.1,0.10000000149011612,2,2.9802322387695312e-08,-7.696401959461494,0.0
29,0.062030027102161434,0.1,0.10000000149011612,2,2.9802322387695312e-08,-7.66435181438464,0.0
30,0.06157262427511305,0.1,0.10000000149011612,2,2.9802322387695312e-08,-7.633504798525106,0.0
31,0.06113544094334128,0.1,0.10000000149011612,2,2.9802322387695312e-08,-7.603822716839973,0.0
32,0.06071758085530621,0.1,0.10000000149011612,2,2.9802322387695312e-08,-7.57526809944157,0.0
33,0.06031818753009361,0.1,0.10000000149011612,2,2.9802322387695312e-08,-7.547804221626136,0.0
34,0.05993644250425272,0.1,0.10000000149011612,2,2.9802322387695312e-08,-7.521395121217502,0.0
35,0.059571563653615905,0.1,0.10000000149011612,2,2.9802322387695312e-08,-7.496005613301051,0.0
36,0.05922280358719504,0.1,0.10000000149011612,2,2.9802322387695312e-08,-7.471601302433575,0.0
37,0.05888944811032879,0.1,0.10000000149011612,2,2.9802322387695312e-08,-7.448148592423299,0.0
38,0.05857081475433394,0.1,0.10000000149011612,2,2.9802322387695312e-08,-7.425614693781802,0.0
39,0.05826625136998941,0.1,0.10000000149011612,2,2.9802322387695312e-08,-7.403967628955553,0.0
40,0.057975134782272834,0.1,0.10000000149011612,2,2.9802322387695312e-08,-7.383176235449429,0.0
41,0.05769686950384222,0.1,0.10000000149011612,2,2.9802322387695312e-08,-7.363210166958174,0.0
42,0.05743088650484667,0.1,0.10000000149011612,2,2.9802322387695312e-08,-7.344039892624003,0.0
43,0.05717664203672353,0.1,0.10000000149011612,2,2.9802322387695312e-08,-7.325636694539861,0.0
44,0.05693361650773041,0.1,0.10000000149011612,2,2.9802322387695312e-08,-7.307972663618207,0.0
45,0.05670131340803015,0.1,0.10000000149011612,2,2.9802322387695312e-08,-7.291020693944553,0.0
46,0.0564792582822377,0.1,0.10000000149011612,2,2.9802322387695312e-08,-7.274754475733692,0.0
47,0.056266997747403805,0.1,0.10000000149011612,2,2.9802322387695312e-08,-7.2591484870044765,0.0
48,0.05606409855449548,0.1,0.10000000149011612,2,2.9802322387695312e-08,-7.2441779840863525,0.0
49,0.0558701466915038,0.1,0.10000000149011612,2,2.9802322387695312e-08,-7.229818991067689,0.0
50,0.05568387943824782,0.1,0.10000000149011612,2,2.9802322387695312e-08,-7.216020155809566,0.0
51,0.05550509813325713,0.1,0.10000000149011612,2,2.9802322387695312e-08,-7.202749491569703,0.0
52,0.05533369765803766,0.1,0.10000000149011612,2,2.9802322387695312e-08,-7.189988296352437,0.0
53,0.05516937379768536,0.1,0.10000000149011612,2,2.9802322387695312e-08,-7.177718418763771,0.0
54,0.05501183482478598,0.1,0.10000000149011612,2,2.9802322387695312e-08,-7.16592224999961,0.0
55,0.05486080099204238,0.1,0.10000000149011612,2,2.9802322387695312e-08,-7.154582715301911,0.0
56,0.05471600404500376,0.1,0.10000000149011612,2,2.9802322387695312e-08,-7.143683264943081,0.0
57,0.05457718675414356,0.1,0.10000000149011612,2,2.9802322387695312e-08,-7.133207864795968,0.0
58,0.05444410246556524,0.1,0.10000000149011612,2,2.9802322387695312e-08,-7.123140986543976,0.0
59,0.05431651466963478,0.1,0.10000000149011612,2,2.9802322387695312e-08,-7.11346759758294,0.0
60,0.05419419658686263,0.1,0.10000000149011612,2,2.9802322387695312e-08,-7.104173150663393,0.0
61,0.05407693077037774,0.1,0.10000000149011612,2,2.9802322387695312e-08,-7.095243573319037,0.0
62,0.053964508724359456,0.1,0.10000000149011612,2,2.9802322387695312e-08,-7.086665257124238,0.0
63,0.05385673053781847,0.1,0.10000000149011612,2,2.9802322387695312e-08,-7.078425046820643,0.0
64,0.0537534045331277,0.1,0.10000000149011612,2,2.9802322387695312e-08,-7.0705102293501145,0.0
65,0.05365434692873838,0.1,0.10000000149011612,2,2.9802322387695312e-08,-7.062908522828607,0.0
66,0.05355938151552647,0.1,0.10000000149011612,2,2.9802322387695312e-08,-7.055608065492849,0.0
67,0.05346833934623749,0.1,0.10000000149011612,2,2.9802322387695312e-08,-7.048597404649275,0.0
68,0.05338105843751657,0.1,0.10000000149011612,2,2.9802322387695312e-08,-7.041865485652172,0.0
69,0.0532973834840306,0.1,0.10000000149011612,2,2.9802322387695312e-08,-7.0354016409356355,0.0
70,0.05321716558420335,0.1,0.10000000149011612,2,2.9802322387695312e-08,-7.029195579121767,0.0
71,0.05314026197710475,0.1,0.10000000149011612,2,2.9802322387695312e-08,-7.023237374225406,0.0
72,0.053066535790054783,0.1,0.10000000149011612,2,2.9802322387695312e-08,-7.017517454973617,0.0
73,0.05299585579651028,0.1,0.10000000149011612,2,2.9802322387695312e-08,-7.012026594256353,0.0
74,0.052928096183830015,0.1,0.10000000149011612,2,2.9802322387695312e-08,-7.006755898722826,0.0
75,0.05286313633052133,0.1,0.10000000149011612,2,2.9802322387695312e-08,-7.001696798536496,0.0
76,0.05280086059258642,0.1,0.10000000149011612,2,2.9802322387695312e-08,-6.996841037299937,0.0
77,0.05274115809860789,0.1,0.10000000149011612,2,2.9802322387695312e-08,-6.992180662159475,0.0
78,0.05268392255321617,0.1,0.10000000149011612,2,2.9802322387695312e-08,-6.987708014097947,0.0
79,0.052629052048608384,0.1,0.10000000149011612,2,2.9802322387695312e-08,-6.983415718422803,0.0
80,0.0525764488837846,0.1,0.10000000149011612,2,2.9802322387695312e-08,-6.979296675455482,0.0
81,0.052526019391200274,0.1,0.10000000149011612,2,2.9802322387695312e-08,-6.975344051426956,0.0
82,0.05247767377052477,0.1,0.10000000149011612,2,2.9802322387695312e-08,-6.9715512695832595,0.0
83,0.05243132592922479,0.1,0.10000000149011612,2,2.9802322387695312e-08,-6.967912001503931,0.0
84,0.05238689332969167,0.1,0.10000000149011612,2,2.9802322387695312e-08,-6.964420158635444,0.0
85,0.05234429684264972,0.1,0.10000000149011612,2,2.9802322387695312e-08,-6.96106988404086,0.0
86,0.0523034606065879,0.1,0.10000000149011612,2,2.9802322387695312e-08,-6.957855544366325,0.0
87,0.05226431189296914,0.1,0.10000000149011612,2,2.9802322387695312e-08,-6.954771722024256,0.0
88,0.052226780976985035,0.1,0.10000000149011612,2,2.9802322387695312e-08,-6.951813207592621,0.0
89,0.05219080101362494,0.1,0.10000000149011612,2,2.9802322387695312e-08,-6.948974992429046,0.0
90,0.05215630791884755,0.1,0.10000000149011612,2,2.9802322387695312e-08,-6.946252261498136,0.0
91,0.05212324025564153,0.1,0.10000000149011612,2,2.9802322387695312e-08,-6.943640386409883,0.0
92,0.052091539124779145,0.1,0.10000000149011612,2,2.9802322387695312e-08,-6.94113491866669,0.0
93,0.052061148060067376,0.1,0.10000000149011612,2,2.9802322387695312e-08,-6.938731583116232,0.0
94,0.05203201292791641,0.1,0.10000000149011612,2,2.9802322387695312e-08,-6.936426271607058,0.0
95,0.052004081831043894,0.1,0.10000000149011612,2,2.9802322387695312e-08,-6.934215036843567,0.0
96,0.05197730501614944,0.1,0.10000000149011612,2,2.9802322387695312e-08,-6.932094086436841,0.0
97,0.051951634785393636,0.1,0.10000000149011612,2,2.9802322387695312e-08,-6.930059777147535,0.0
98,0.05192702541152714,0.1,0.10000000149011612,2,2.9802322387695312e-08,-6.928108609316975,0.0
99,0.05190343305651873,0.1,0.10000000149011612,2,2.9802322387695312e-08,-6.926237221482381,0.0
100,0.05188081569353986,0.1,0.10000000149011612,2,2.9802322387695312e-08,-6.924442385172112,0.0
101,0.05185913303216596,0.1,0.10000000149011612,2,2.9802322387695312e-08,-6.922720999876709,0.0
102,0.051838346446664886,0.1,0.10000000149011612,2,2.9802322387695312e-08,-6.921070088191439,0.0
103,0.05181841890724202,0.1,0.10000000149011612,2,2.9802322387695312e-08,-6.919486791126042,0.0
104,0.05179931491412361,0.1,0.10000000149011612,2,2.9802322387695312e-08,-6.917968363577307,0.0
105,0.05178100043435937,0.1,0.10000000149011612,2,2.9802322387695312e-08,-6.9165121699601535,0.0
106,0.05176344284123469,0.1,0.10000000149011612,2,2.9802322387695312e-08,-6.915115679992832,0.0
107,0.051746610856181444,0.1,0.10000000149011612,2,2.9802322387695312e-08,-6.91377646463192,0.0
108,0.05173047449308783,0.1,0.10000000149011612,2,2.9802322387695312e-08,-6.912492192152817,0.0
109,0.05171500500490689,0.1,0.10000000149011612,2,2.9802322387695312e-08,-6.9112606243714305,0.0
110,0.051700174832469685,0.1,0.10000000149011612,2,2.9802322387695312e-08,-6.910079613002853,0.0
111,0.051685957555410465,0.1,0.10000000149011612,2,2.9802322387695312e-08,-6.90894709615285,0.0
112,0.05167232784511936,0.1,0.10000000149011612,2,2.9802322387695312e-08,-6.90786109493804,0.0
113,0.05165926141963753,0.1,0.10000000149011612,2,2.9802322387695312e-08,-6.906819710230709,0.0
114,0.05164673500041424,0.1,0.10000000149011612,2,2.9802322387695312e-08,-6.9058211195242984,0.0
115,0.05163472627085082,0.1,0.10000000149011612,2,2.9802322387695312e-08,-6.904863573915646,0.0
116,0.05162321383655443,0.1,0.10000000149011612,2,2.9802322387695312e-08,-6.903945395200166,0.0
117,0.05161217718723713,0.1,0.10000000149011612,2,2.9802322387695312e-08,-6.903064973076209,0.0
118,0.05160159666018463,0.1,0.10000000149011612,2,2.9802322387695312e-08,-6.902220762454963,0.0
119,0.05159145340523628,0.1,0.10000000149011612,2,2.9802322387695312e-08,-6.901411280872296,0.0
120,0.051581729351211,0.1,0.10000000149011612,2,2.9802322387695312e-08,-6.9006351059990685,0.0
121,0.051572407173719914,0.1,0.10000000149011612,2,2.9802322387695312e-08,-6.899890873246512,0.0
122,0.05156347026430852,0.1,0.10000000149011612,2,2.9802322387695312e-08,-6.899177273463354,0.0
123,0.05155490270087383,0.1,0.10000000149011612,2,2.9802322387695312e-08,-6.898493050721475,0.0
124,0.05154668921930348,0.1,0.10000000149011612,2,2.9802322387695312e-08,-6.897837000186966,0.0
125,0.051538815186286266,0.1,0.10000000149011612,2,2.9802322387695312e-08,-6.897207966073532,0.0
126,0.051531266573246616,0.1,0.10000000149011612,2,2.9802322387695312e-08,-6.8966048396752875,0.0
127,0.051524029931354694,0.1,0.10000000149011612,2,2.9802322387695312e-08,-6.896026557476076,0.0
128,0.05151709236757,0.1,0.10000000149011612,2,2.9802322387695312e-08,-6.895472099332529,0.0
129,0.05151044152167469,0.1,0.10000000149011612,2,2.9802322387695312e-08,-6.8949404867281645,0.0
130,0.05150406554425566,0.1,0.10000000149011612,2,2.9802322387695312e-08,-6.894430781095921,0.0
131,0.051497953075594884,0.1,0.10000000149011612,2,2.9802322387695312e-08,-6.893942082206563,0.0
132,0.05149209322543483,0.1,0.10000000149011612,2,2.9802322387695312e-08,-6.893473526620561,0.0
133,0.05148647555357743,0.1,0.10000000149011612,2,2.9802322387695312e-08,-6.893024286201015,0.0
134,0.051481090051286364,0.1,0.10000000149011612,2,2.9802322387695312e-08,-6.892593566685401,0.0
135,0.051475927123455924,0.1,0.10000000149011612,2,2.9802322387695312e-08,-6.8921806063138344,0.0
136,0.05147097757151858,0.1,0.10000000149011612,2,2.9802322387695312e-08,-6.891784674511789,0.0
137,0.051466232577057895,0.1,0.10000000149011612,2,2.9802322387695312e-08,-6.891405070625172,0.0
138,0.05146168368609821,0.1,0.10000000149011612,2,2.9802322387695312e-08,-6.89104112270573,0.0
139,0.0514573227940446,0.1,0.10000000149011612,2,2.9802322387695312e-08,-6.890692186344933,0.0
140,0.05145314213124415,0.1,0.10000000149011612,2,2.9802322387695312e-08,-6.89035764355438,0.0
141,0.05144913424914359,0.1,0.10000000149011612,2,2.9802322387695312e-08,-6.89003690169101,0.0
142,0.051445292007020665,0.1,0.10000000149011612,2,2.9802322387695312e-08,-6.88972939242535,0.0
143,0.051441608559262005,0.1,0.10000000149011612,2,2.9802322387695312e-08,-6.889434570751139,0.0
144,0.05143807734316761,0.1,0.10000000149011612,2,2.9802322387695312e-08,-6.8891519140347155,0.0
145,0.05143469206725853,0.1,0.10000000149011612,2,2.9802322387695312e-08,-6.888880921102632,0.0
146,0.051431446700068856,0.1,0.10000000149011612,2,2.9802322387695312e-08,-6.888621111365973,0.0
147,0.05142833545940053,0.1,0.10000000149011612,2,2.9802322387695312e-08,-6.888372023979994,0.0
148,0.051425352802020555,0.1,0.10000000149011612,2,2.9802322387695312e-08,-6.8881332170376135,0.0
149,0.051422493413786845,0.1,0.10000000149011612,2,2.9802322387695312e-08,-6.887904266795502,0.0
150,0.051419752200179775,0.1,0.10000000149011612,2,2.9802322387695312e-08,-6.887684766931444,0.0
151,0.051417124277226216,0.1,0.10000000149011612,2,2.9802322387695312e-08,-6.887474327831747,0.0
152,0.051414604962797636,0.1,0.10000000149011612,2,2.9802322387695312e-08,-6.887272575907485,0.0
153,0.05141218976826921,0.1,0.10000000149011612,2,2.9802322387695312e-08,-6.887079152938483,0.0
154,0.051409874390522296,0.1,0.10000000149011612,2,2.9802322387695312e-08,-6.88689371544389,0.0
155,0.05140765470427868,0.1,0.10000000149011612,2,2.9802322387695312e-08,-6.886715934078309,0.0
156,0.05140552675474954,0.1,0.10000000149011612,2,2.9802322387695312e-08,-6.886545493052452,0.0
157,0.051403486750590775,0.1,0.10000000149011612,2,2.9802322387695312e-08,-6.886382089577355,0.0
158,0.05140153105714818,0.1,0.10000000149011612,2,2.9802322387695312e-08,-6.886225433331195,0.0
159,0.051399656189980825,0.1,0.10000000149011612,2,2.9802322387695312e-08,-6.886075245947818,0.0
160,0.05139785880865419,0.1,0.10000000149011612,2,2.9802322387695312e-08,-6.885931260526098,0.0
161,0.05139613571078814,0.1,0.10000000149011612,2,2.9802322387695312e-08,-6.885793221159289,0.0
162,0.05139448382635132,0.1,0.10000000149011612,2,2.9802322387695312e-08,-6.885660882483576,0.0
163,0.05139290021219226,0.1,0.10000000149011612,2,2.9802322387695312e-08,-6.885534009245052,0.0
164,0.05139138204679491,0.1,0.10000000149011612,2,2.9802322387695312e-08,-6.8854123758843615,0.0
165,0.05138992662525167,0.1,0.10000000149011612,2,2.9802322387695312e-08,-6.885295766138311,0.0
166,0.05138853135444488,0.1,0.10000000149011612,2,2.9802322387695312e-08,-6.885183972657781,0.0
167,0.05138719374842598,0.1,0.10000000149011612,2,2.9802322387695312e-08,-6.885076796641225,0.0
168,0.05138591142398746,0.1,0.10000000149011612,2,2.9802322387695312e-08,-6.884974047483197,0.0
169,0.0513846820964153,0.1,0.10000000149011612,2,2.9802322387695312e-08,-6.884875542437236,0.0
170,0.051383503575420035,0.1,0.10000000149011612,2,2.9802322387695312e-08,-6.884781106292558,0.0
171,0.05138237376123299,0.1,0.10000000149011612,2,2.9802322387695312e-08,-6.884690571063995,0.0
172,0.05138129064086613,0.1,0.10000000149011612,2,2.9802322387695312e-08,-6.884603775694631,0.0
173,0.051380252284525044,0.1,0.10000000149011612,2,2.9802322387695312e-08,-6.884520565770624,0.0
174,0.05137925684217114,0.1,0.10000000149011612,2,2.9802322387695312e-08,-6.88444079324774,0.0
175,0.05137830254022497,0.1,0.10000000149011612,2,2.9802322387695312e-08,-6.884364316189063,0.0
176,0.051377387678406806,0.1,0.10000000149011612,2,2.9802322387695312e-08,-6.88429099851351,0.0
177,0.051376510626707166,0.1,0.10000000149011612,2,2.9802322387695312e-08,-6.884220709754635,0.0
178,0.05137566982248192,0.1,0.10000000149011612,2,2.9802322387695312e-08,-6.884153324829345,0.0
179,0.051374863767669955,0.1,0.10000000149011612,2,2.9802322387695312e-08,-6.884088723816124,0.0
180,0.05137409102612172,0.1,0.10000000149011612,2,2.9802322387695312e-08,-6.8840267917423414,0.0
181,0.05137335022104244,0.1,0.10000000149011612,2,2.9802322387695312e-08,-6.883967418380319,0.0
182,0.0513726400325384,0.1,0.10000000149011612,2,2.9802322387695312e-08,-6.88391049805178,0.0
183,0.05137195919526519,0.1,0.10000000149011612,2,2.9802322387695312e-08,-6.8838559294403145,0.0
184,0.05137130649617291,0.1,0.10000000149011612,2,2.9802322387695312e-08,-6.8838036154115745,0.0
185,0.051370680772346196,0.1,0.10000000149011612,2,2.9802322387695312e-08,-6.8837534628408585,0.0
186,0.05137008090893093,0.1,0.10000000149011612,2,2.9802322387695312e-08,-6.883705382447788,0.0
187,0.05136950583714854,0.1,0.10000000149011612,2,2.9802322387695312e-08,-6.883659288637776,0.0
188,0.051368954532391244,0.1,0.10000000149011612,2,2.9802322387695312e-08,-6.883615099350026,0.0
189,0.0513684260123979,0.1,0.10000000149011612,2,2.9802322387695312e-08,-6.883572735911797,0.0
190,0.05136791933550195,0.1,0.10000000149011612,2,2.9802322387695312e-08,-6.883532122898648,0.0
191,0.051367433598955264,0.1,0.10000000149011612,2,2.9802322387695312e-08,-6.883493188000443,0.0
192,0.05136696793731905,0.1,0.10000000149011612,2,2.9802322387695312e-08,-6.883455861892884,0.0
193,0.05136652152092165,0.1,0.10000000149011612,2,2.9802322387695312e-08,-6.8834200781143124,0.0
194,0.051366093554381105,0.1,0.10000000149011612,2,2.9802322387695312e-08,-6.883385772947606,0.0
195,0.05136568327518744,0.1,0.10000000149011612,2,2.9802322387695312e-08,-6.883352885306934,0.0
196,0.051365289952343886,0.1,0.10000000149011612,2,2.9802322387695312e-08,-6.883321356629165,0.0
197,0.051364912885065325,0.1,0.10000000149011612,2,2.9802322387695312e-08,-6.8832911307697735,0.0
198,0.051364551401529034,0.1,0.10000000149011612,2,2.9802322387695312e-08,-6.8832621539030185,0.0
199,0.05136420485767775,0.1,0.10000000149011612,2,2.9802322387695312e-08,-6.883234374426232,0.0
200,0.05136387263607232,0.1,0.10000000149011612,2,2.9802322387695312e-08,-6.883207742868075,0.0
201,0.05136355414479204,0.1,0.10000000149011612,2,2.9802322387695312e-08,-6.883182211800558,0.0
202,0.05136324881637862,0.1,0.10000000149011612,2,2.9802322387695312e-08,-6.8831577357546845,0.0
203,0.051362956106826875,0.1,0.10000000149011612,2,2.9802322387695312e-08,-6.883134271139591,0.0
204,0.05136267549461458,0.1,0.10000000149011612,2,2.9802322387695312e-08,-6.883111776164999,0.0
205,0.05136240647977292,0.1,0.10000000149011612,2,2.9802322387695312e-08,-6.883090210766891,0.0
